hour, t(sec), V1, VAngle1, V2, VAngle2, V3, VAngle3, I1, IAngle1, I2, IAngle2, I3, IAngle3
0, 900.00000, 230.551, -30.1821, 230.796, -150.053, 230.875, 89.9372, 80.1813, 133.76, 19.2153, 13.2885, 22.7174, -105.943
0, 1800.00000, 230.691, -30.118, 230.81, -150.056, 230.846, 89.9384, 51.0372, 133.735, 21.6803, 13.4926, 23.8582, -106.089
0, 2700.00000, 230.639, -30.1411, 230.816, -150.048, 230.876, 89.946, 61.8922, 133.759, 17.8217, 13.394, 19.9075, -106.013
1, 0.00000, 230.705, -30.1097, 230.815, -150.058, 230.808, 89.9233, 46.9999, 133.68, 22.4828, 13.5778, 30.9082, -106.126
1, 900.00000, 230.675, -30.1299, 230.734, -150.095, 230.775, 89.9093, 54.8766, 133.736, 38.7472, 13.5745, 36.124, -106.223
1, 1800.00000, 230.634, -30.1636, 230.609, -150.142, 230.827, 89.9332, 69.2626, 133.898, 59.9254, 13.467, 23.6164, -106.371
1, 2700.00000, 230.729, -30.125, 230.58, -150.159, 230.833, 89.9471, 51.5602, 133.917, 68.618, 13.6379, 18.0573, -106.604
2, 0.00000, 230.713, -30.1187, 230.713, -150.098, 230.848, 89.9463, 50.3261, 133.851, 41.2558, 13.5527, 19.5714, -106.329
2, 900.00000, 230.669, -30.1412, 230.687, -150.107, 230.855, 89.9457, 60.2286, 133.915, 44.7369, 13.4493, 19.1218, -106.284
2, 1800.00000, 230.701, -30.1179, 230.74, -150.093, 230.785, 89.9161, 49.6411, 133.719, 37.9324, 13.6065, 33.3929, -106.242
2, 2700.00000, 230.605, -30.1733, 230.641, -150.125, 230.841, 89.9343, 74.1294, 133.874, 52.3655, 13.4012, 23.0646, -106.142
3, 0.00000, 230.641, -30.1539, 230.691, -150.102, 230.874, 89.9507, 66.2433, 133.886, 42.3898, 13.4102, 16.5405, -106.127
3, 900.00000, 230.692, -30.1263, 230.698, -150.111, 230.785, 89.9171, 52.9952, 133.762, 45.9025, 13.5551, 32.3971, -106.229
3, 1800.00000, 230.644, -30.1464, 230.681, -150.123, 230.718, 89.8834, 61.1963, 133.704, 50.2208, 13.5662, 46.9286, -106.197
3, 2700.00000, 230.702, -30.1087, 230.772, -150.092, 230.664, 89.862, 44.6582, 133.508, 36.2469, 13.7563, 58.1666, -106.21
4, 0.00000, 230.46, -30.2182, 230.726, -150.101, 230.664, 89.8378, 93.7007, 133.512, 38.1054, 13.4641, 65.8854, -105.953
4, 900.00000, 230.466, -30.2257, 230.65, -150.13, 230.702, 89.8588, 96.6194, 133.62, 51.6561, 13.4662, 55.7743, -106.039
4, 1800.00000, 230.634, -30.146, 230.738, -150.094, 230.757, 89.8971, 62.0913, 133.633, 37.4474, 13.6012, 41.2175, -106.184
4, 2700.00000, 230.7, -30.1285, 230.65, -150.13, 230.797, 89.9254, 53.5775, 133.822, 55.1075, 13.581, 28.2561, -106.361
5, 0.00000, 230.708, -30.1277, 230.623, -150.144, 230.785, 89.9218, 52.788, 133.844, 61.175, 13.5826, 29.6803, -106.384
5, 900.00000, 230.654, -30.151, 230.622, -150.143, 230.773, 89.9111, 63.1535, 133.84, 60.1137, 13.5302, 33.9491, -106.345
5, 1800.00000, 230.683, -30.1392, 230.593, -150.162, 230.724, 89.8944, 57.045, 133.84, 68.4929, 13.6302, 41.5403, -106.439
5, 2700.00000, 230.713, -30.1246, 230.601, -150.161, 230.716, 89.8938, 50.4578, 133.791, 68.0286, 13.6492, 42.2376, -106.414
6, 0.00000, 230.64, -30.1563, 230.639, -150.132, 230.797, 89.9195, 65.9756, 133.862, 55.389, 13.4694, 30.1651, -106.296
6, 900.00000, 230.722, -30.1169, 230.642, -150.142, 230.727, 89.8977, 47.5346, 133.773, 59.9149, 13.6816, 40.9633, -106.419
6, 1800.00000, 230.392, -30.2565, 230.651, -150.131, 230.653, 89.8285, 109.945, 133.645, 50.8748, 13.2641, 68.5977, -105.916
6, 2700.00000, 230.292, -30.3048, 230.592, -150.156, 230.607, 89.8001, 130.566, 133.704, 60.8113, 13.1284, 79.7517, -105.898
7, 0.00000, 230.499, -30.199, 230.693, -150.131, 230.529, 89.7841, 83.2797, 133.476, 50.5307, 13.5717, 90.2647, -106.07
7, 900.00000, 230.581, -30.1742, 230.674, -150.124, 230.709, 89.8729, 73.587, 133.696, 50.1059, 13.4913, 50.9218, -106.129
7, 1800.00000, 230.695, -30.1222, 230.685, -150.127, 230.689, 89.8762, 50.0593, 133.634, 52.1892, 13.6769, 50.8057, -106.253
7, 2700.00000, 230.524, -30.202, 230.686, -150.107, 230.794, 89.9033, 87.1154, 133.806, 42.8299, 13.3075, 36.6574, -106.032
8, 0.00000, 230.657, -30.1438, 230.653, -150.135, 230.718, 89.8862, 59.7163, 133.75, 55.9992, 13.5814, 45.5375, -106.284
8, 900.00000, 230.717, -30.1136, 230.681, -150.128, 230.703, 89.8849, 46.2493, 133.709, 53.0216, 13.712, 47.1076, -106.363
8, 1800.00000, 230.697, -30.1254, 230.67, -150.127, 230.747, 89.9023, 51.9124, 133.737, 52.9387, 13.6224, 38.8675, -106.314
8, 2700.00000, 230.658, -30.1379, 230.694, -150.119, 230.707, 89.8794, 57.4214, 133.655, 48.523, 13.6136, 49.032, -106.211
9, 0.00000, 230.686, -30.1192, 230.753, -150.096, 230.694, 89.8741, 49.4932, 133.571, 38.3907, 13.6869, 52.2915, -106.191
9, 900.00000, 230.686, -30.1226, 230.749, -150.091, 230.754, 89.9008, 51.5725, 133.698, 36.8027, 13.5977, 40.2164, -106.203
9, 1800.00000, 230.659, -30.1386, 230.708, -150.107, 230.757, 89.9007, 58.3948, 133.72, 43.8862, 13.559, 39.5547, -106.197
9, 2700.00000, 230.727, -30.1064, 230.724, -150.106, 230.736, 89.8982, 43.7683, 133.692, 43.6193, 13.6753, 41.6062, -106.295
10, 0.00000, 230.777, -30.0867, 230.702, -150.119, 230.725, 89.8997, 34.4956, 133.739, 49.9017, 13.7617, 41.2608, -106.411
10, 900.00000, 230.775, -30.0794, 230.779, -150.084, 230.732, 89.8992, 32.1388, 133.635, 34.3389, 13.7476, 42.2121, -106.277
10, 1800.00000, 230.799, -30.0636, 230.851, -150.049, 230.782, 89.9203, 26.229, 133.625, 19.1683, 13.731, 33.679, -106.227
10, 2700.00000, 230.753, -30.087, 230.862, -150.032, 230.885, 89.9598, 38.0044, 133.745, 11.9178, 13.5217, 15.3911, -106.108
11, 0.00000, 230.783, -30.075, 230.847, -150.041, 230.873, 89.9587, 32.2969, 133.747, 16.1867, 13.5866, 16.0404, -106.187
11, 900.00000, 230.261, -30.3179, 230.796, -150.027, 231.009, 89.9655, 142.574, 133.965, 6.01917, 12.5873, 6.75988, -105.476
11, 1800.00000, 230.25, -30.3237, 230.778, -150.036, 230.992, 89.9577, 144.838, 133.962, 9.65844, 12.5504, 9.98295, -105.518
11, 2700.00000, 230.211, -30.3416, 230.773, -150.036, 230.996, 89.9552, 152.885, 133.926, 9.41757, 12.5205, 10.6068, -105.475
12, 0.00000, 230.207, -30.3422, 230.777, -150.035, 230.988, 89.9513, 153.16, 133.894, 8.94921, 12.5944, 12.3712, -105.388
12, 900.00000, 230.224, -30.3547, 230.556, -150.138, 230.893, 89.9199, 155.218, 134.046, 55.0712, 12.7785, 24.5643, -105.608
12, 1800.00000, 230.225, -30.3551, 230.55, -150.141, 230.888, 89.9178, 155.255, 134.065, 56.2936, 12.7395, 25.4613, -105.6
12, 2700.00000, 230.285, -30.3755, 230.072, -150.365, 230.722, 89.873, 157.142, 134.432, 156.66, 12.9633, 41.9063, -106.566
13, 0.00000, 230.274, -30.3767, 230.081, -150.366, 230.674, 89.8511, 157.37, 134.375, 156.523, 13.0168, 51.8066, -106.589
13, 900.00000, 230.157, -30.385, 230.172, -150.386, 230.142, 89.6032, 157.906, 133.41, 157.844, 13.6709, 163.027, -106.373
13, 1800.00000, 230.159, -30.3844, 230.174, -150.385, 230.14, 89.6034, 157.618, 133.455, 157.541, 13.6896, 163.067, -106.43
13, 2700.00000, 230.155, -30.3857, 230.17, -150.386, 230.141, 89.604, 158.288, 133.395, 157.942, 13.6368, 162.76, -106.453
14, 0.00000, 230.154, -30.3862, 230.168, -150.386, 230.142, 89.6042, 158.468, 133.398, 158.145, 13.6395, 162.667, -106.446
14, 900.00000, 230.153, -30.3862, 230.167, -150.388, 230.141, 89.6038, 158.525, 133.354, 158.688, 13.664, 162.813, -106.446
14, 1800.00000, 230.151, -30.3874, 230.166, -150.387, 230.143, 89.6043, 159.066, 133.349, 158.558, 13.6563, 162.54, -106.433
14, 2700.00000, 230.153, -30.3866, 230.169, -150.386, 230.142, 89.6041, 158.682, 133.388, 158.034, 13.6521, 162.711, -106.463
15, 0.00000, 230.149, -30.3881, 230.169, -150.386, 230.142, 89.6039, 159.402, 133.378, 157.912, 13.6645, 162.765, -106.476
15, 900.00000, 230.16, -30.384, 230.176, -150.385, 230.137, 89.6024, 157.414, 133.475, 157.35, 13.7429, 163.597, -106.456
15, 1800.00000, 230.159, -30.3837, 230.177, -150.385, 230.138, 89.6025, 157.331, 133.43, 157.223, 13.7416, 163.495, -106.436
15, 2700.00000, 230.153, -30.3859, 230.172, -150.386, 230.142, 89.6033, 158.41, 133.356, 157.761, 13.6805, 162.994, -106.403
16, 0.00000, 230.153, -30.3851, 230.172, -150.386, 230.142, 89.6031, 158.124, 133.304, 157.854, 13.705, 163.048, -106.381
16, 900.00000, 230.295, -30.3772, 230.061, -150.363, 230.771, 89.8949, 157.97, 134.67, 156.333, 12.7717, 32.0518, -106.565
16, 1800.00000, 230.295, -30.3768, 230.063, -150.362, 230.768, 89.8932, 157.746, 134.692, 156.03, 12.756, 32.8108, -106.549
16, 2700.00000, 230.155, -30.3875, 230.173, -150.385, 230.14, 89.6019, 158.815, 133.553, 157.373, 13.6315, 163.656, -106.385
17, 0.00000, 230.161, -30.3854, 230.164, -150.389, 230.138, 89.6024, 157.837, 133.512, 159.469, 13.653, 163.394, -106.399
17, 900.00000, 230.315, -30.3736, 230.048, -150.364, 230.804, 89.911, 156.239, 134.895, 157.617, 12.6271, 24.8654, -106.489
17, 1800.00000, 230.309, -30.374, 230.052, -150.365, 230.786, 89.9025, 156.401, 134.786, 157.683, 12.7102, 28.6562, -106.43
17, 2700.00000, 230.19, -30.3512, 230.712, -150.072, 230.895, 89.9106, 155.633, 133.807, 24.2924, 12.8379, 29.8456, -105.396
18, 0.00000, 230.198, -30.3537, 230.65, -150.101, 230.864, 89.9001, 155.642, 133.884, 37.4047, 12.7564, 34.0835, -105.502
18, 900.00000, 230.894, -30.0503, 230.601, -150.158, 230.819, 89.9568, 17.8536, 134.031, 69.8921, 13.7527, 15.6191, -106.677
18, 1800.00000, 230.882, -30.0458, 230.702, -150.111, 230.843, 89.9618, 17.1451, 133.898, 48.7576, 13.706, 14.2464, -106.476
18, 2700.00000, 230.853, -30.0484, 230.752, -150.1, 230.728, 89.9066, 17.7297, 133.657, 42.2394, 13.7842, 39.4517, -106.365
19, 0.00000, 230.777, -30.0746, 230.793, -150.085, 230.671, 89.8723, 29.475, 133.519, 34.0097, 13.8307, 54.5631, -106.267
19, 900.00000, 230.753, -30.0995, 230.708, -150.107, 230.8, 89.9294, 41.1235, 133.782, 45.1222, 13.6208, 27.6023, -106.314
19, 1800.00000, 230.782, -30.0808, 230.738, -150.103, 230.735, 89.9028, 32.3411, 133.625, 42.677, 13.7497, 40.2455, -106.288
19, 2700.00000, 230.648, -30.1368, 230.76, -150.087, 230.74, 89.8896, 57.973, 133.612, 34.1027, 13.6056, 44.9375, -106.101
20, 0.00000, 230.755, -30.0842, 230.816, -150.068, 230.728, 89.8938, 34.6866, 133.572, 26.6793, 13.7712, 44.8299, -106.228
20, 900.00000, 230.712, -30.1087, 230.787, -150.072, 230.793, 89.9187, 46.0933, 133.712, 28.7942, 13.6194, 32.7769, -106.231
20, 1800.00000, 230.767, -30.082, 230.816, -150.062, 230.792, 89.9227, 34.2895, 133.692, 24.7422, 13.6718, 31.8775, -106.231
20, 2700.00000, 230.745, -30.0875, 230.813, -150.072, 230.698, 89.8797, 35.8084, 133.55, 28.0358, 13.8029, 51.073, -106.223
21, 0.00000, 230.726, -30.1134, 230.674, -150.125, 230.764, 89.9124, 46.6442, 133.847, 52.404, 13.6194, 34.67, -106.365
21, 900.00000, 230.633, -30.1459, 230.776, -150.07, 230.823, 89.9238, 63.0851, 133.732, 27.3528, 13.4512, 29.4891, -106.102
21, 1800.00000, 230.751, -30.0902, 230.788, -150.076, 230.764, 89.9105, 37.4297, 133.65, 30.7302, 13.7345, 36.9539, -106.268
21, 2700.00000, 230.733, -30.0978, 230.793, -150.073, 230.769, 89.91, 40.9952, 133.636, 29.0803, 13.7153, 36.988, -106.212
22, 0.00000, 230.741, -30.1026, 230.743, -150.088, 230.831, 89.9405, 43.2105, 133.809, 36.7516, 13.629, 22.7994, -106.327
22, 900.00000, 230.81, -30.0666, 230.811, -150.059, 230.864, 89.9589, 28.0046, 133.774, 24.4407, 13.6603, 15.8829, -106.295
22, 1800.00000, 230.88, -30.0362, 230.812, -150.061, 230.861, 89.9648, 14.1862, 133.792, 26.3746, 13.7579, 14.0013, -106.392
22, 2700.00000, 230.851, -30.0528, 230.775, -150.076, 230.862, 89.9637, 21.3297, 133.834, 32.8281, 13.7371, 13.79, -106.423
23, 0.00000, 230.725, -30.1124, 230.732, -150.089, 230.862, 89.9527, 47.7988, 133.911, 37.2584, 13.4939, 17.005, -106.278
23, 900.00000, 230.671, -30.1422, 230.686, -150.104, 230.883, 89.958, 60.9361, 133.974, 43.8955, 13.3877, 13.5298, -106.273
23, 1800.00000, 230.86, -30.0529, 230.738, -150.092, 230.867, 89.9685, 21.0192, 133.936, 40.1458, 13.7141, 11.3431, -106.467
23, 2700.00000, 230.77, -30.0878, 230.781, -150.068, 230.875, 89.9609, 37.3713, 133.847, 28.6095, 13.5621, 14.256, -106.274
24, 0.00000, 230.857, -30.0453, 230.809, -150.064, 230.836, 89.9515, 18.0302, 133.746, 27.0712, 13.7502, 19.7506, -106.331
