hour, t(sec), V1, VAngle1, V2, VAngle2, V3, VAngle3, I1, IAngle1, I2, IAngle2, I3, IAngle3
0, 900.00000, 230.618, -30.1854, 230.817, -150.054, 230.897, 89.9373, 78.4971, 138.422, 18.8108, 18.0744, 22.2638, -101.167
0, 1800.00000, 230.735, -30.1201, 230.831, -150.057, 230.868, 89.9379, 49.9745, 138.439, 21.229, 18.2668, 23.3751, -101.327
0, 2700.00000, 230.692, -30.1437, 230.835, -150.049, 230.895, 89.946, 60.5991, 138.443, 17.4489, 18.1767, 19.5079, -101.238
1, 0.00000, 230.746, -30.1118, 230.837, -150.059, 230.836, 89.9224, 46.0206, 138.397, 22.0175, 18.3515, 30.2782, -101.38
1, 900.00000, 230.723, -30.132, 230.77, -150.097, 230.808, 89.9081, 53.737, 138.45, 37.9398, 18.321, 35.3823, -101.477
1, 1800.00000, 230.694, -30.1658, 230.663, -150.145, 230.852, 89.9325, 67.8411, 138.61, 58.6554, 18.1779, 23.1305, -101.59
1, 2700.00000, 230.775, -30.1263, 230.64, -150.162, 230.853, 89.9462, 50.5136, 138.668, 67.1679, 18.3127, 17.6802, -101.816
2, 0.00000, 230.757, -30.1204, 230.75, -150.1, 230.868, 89.9457, 49.2935, 138.577, 40.3904, 18.2795, 19.1695, -101.552
2, 900.00000, 230.722, -30.1432, 230.728, -150.109, 230.875, 89.9452, 58.991, 138.617, 43.7902, 18.1711, 18.7311, -101.499
2, 1800.00000, 230.746, -30.1198, 230.775, -150.095, 230.816, 89.915, 48.6126, 138.446, 37.1435, 18.3519, 32.7069, -101.493
2, 2700.00000, 230.669, -30.1758, 230.689, -150.128, 230.864, 89.9339, 72.5904, 138.548, 51.2616, 18.1504, 22.5977, -101.362
3, 0.00000, 230.698, -30.1561, 230.73, -150.104, 230.892, 89.9506, 64.8704, 138.564, 41.4986, 18.169, 16.2065, -101.342
3, 900.00000, 230.739, -30.1282, 230.74, -150.113, 230.816, 89.916, 51.8973, 138.478, 44.946, 18.3075, 31.7336, -101.471
3, 1800.00000, 230.698, -30.1487, 230.727, -150.125, 230.762, 89.8817, 59.9174, 138.402, 49.1754, 18.3191, 45.965, -101.459
3, 2700.00000, 230.743, -30.1108, 230.806, -150.093, 230.715, 89.8598, 43.7232, 138.255, 35.5047, 18.5204, 56.961, -101.505
4, 0.00000, 230.542, -30.2223, 230.764, -150.103, 230.723, 89.8362, 91.7, 138.182, 37.3119, 18.2435, 64.5474, -101.243
4, 900.00000, 230.55, -30.2295, 230.7, -150.133, 230.754, 89.8573, 94.5732, 138.293, 50.5768, 18.2321, 54.6402, -101.309
4, 1800.00000, 230.689, -30.1486, 230.773, -150.096, 230.795, 89.8959, 60.7983, 138.366, 36.6714, 18.3624, 40.3718, -101.447
4, 2700.00000, 230.748, -30.1303, 230.699, -150.133, 230.825, 89.9243, 52.478, 138.558, 53.953, 18.3049, 27.6732, -101.593
5, 0.00000, 230.755, -30.1294, 230.677, -150.147, 230.814, 89.9206, 51.7059, 138.578, 59.8912, 18.2991, 29.0669, -101.617
5, 900.00000, 230.71, -30.1531, 230.676, -150.146, 230.806, 89.9099, 61.8535, 138.557, 58.8485, 18.2504, 33.2487, -101.582
5, 1800.00000, 230.734, -30.141, 230.654, -150.165, 230.764, 89.8927, 55.8729, 138.565, 67.0539, 18.3292, 40.6752, -101.687
5, 2700.00000, 230.759, -30.1262, 230.662, -150.164, 230.757, 89.8919, 49.4199, 138.525, 66.6073, 18.3643, 41.3571, -101.672
6, 0.00000, 230.698, -30.1585, 230.689, -150.135, 230.827, 89.9186, 64.616, 138.568, 54.2197, 18.1947, 29.5462, -101.526
6, 900.00000, 230.765, -30.1185, 230.696, -150.145, 230.766, 89.8959, 46.5575, 138.516, 58.6656, 18.3953, 40.1101, -101.673
6, 1800.00000, 230.486, -30.2608, 230.701, -150.134, 230.715, 89.8268, 107.584, 138.259, 49.7968, 18.0295, 67.2123, -101.195
6, 2700.00000, 230.404, -30.3098, 230.652, -150.159, 230.68, 89.7981, 127.759, 138.277, 59.5082, 17.8843, 78.1405, -101.183
7, 0.00000, 230.574, -30.2028, 230.742, -150.133, 230.608, 89.7811, 81.496, 138.144, 49.4816, 18.3332, 88.4005, -101.392
7, 900.00000, 230.646, -30.177, 230.721, -150.126, 230.756, 89.8713, 72.042, 138.379, 49.0567, 18.2416, 49.8792, -101.399
7, 1800.00000, 230.741, -30.1242, 230.732, -150.129, 230.736, 89.8741, 49.0166, 138.365, 51.1085, 18.419, 49.7522, -101.537
7, 2700.00000, 230.599, -30.2053, 230.727, -150.11, 230.829, 89.9026, 85.285, 138.454, 41.9237, 18.0675, 35.9183, -101.269
8, 0.00000, 230.71, -30.146, 230.704, -150.138, 230.761, 89.8845, 58.4769, 138.462, 54.8281, 18.312, 44.598, -101.54
8, 900.00000, 230.76, -30.1154, 230.729, -150.13, 230.746, 89.8829, 45.2939, 138.451, 51.9207, 18.4333, 46.1279, -101.627
8, 1800.00000, 230.744, -30.1273, 230.718, -150.129, 230.784, 89.9008, 50.8395, 138.469, 51.8365, 18.3583, 38.0647, -101.565
8, 2700.00000, 230.71, -30.1402, 230.739, -150.121, 230.752, 89.8776, 56.222, 138.369, 47.5149, 18.3604, 48.0223, -101.48
9, 0.00000, 230.731, -30.1214, 230.789, -150.098, 230.741, 89.8722, 48.4578, 138.303, 37.5993, 18.444, 51.2123, -101.475
9, 900.00000, 230.731, -30.1247, 230.783, -150.093, 230.791, 89.8994, 50.5002, 138.418, 36.0369, 18.3427, 39.391, -101.461
9, 1800.00000, 230.71, -30.1409, 230.749, -150.11, 230.794, 89.8994, 57.1793, 138.429, 42.9702, 18.3036, 38.7442, -101.45
9, 2700.00000, 230.767, -30.1081, 230.764, -150.108, 230.774, 89.8965, 42.8616, 138.428, 42.7161, 18.4176, 40.7464, -101.553
10, 0.00000, 230.809, -30.0879, 230.746, -150.121, 230.762, 89.8978, 33.7867, 138.493, 48.8688, 18.4806, 40.4009, -101.669
10, 900.00000, 230.805, -30.0808, 230.811, -150.086, 230.77, 89.8975, 31.4729, 138.386, 33.6333, 18.4997, 41.3384, -101.547
10, 1800.00000, 230.824, -30.0649, 230.869, -150.05, 230.811, 89.919, 25.6856, 138.38, 18.7756, 18.5005, 32.9864, -101.485
10, 2700.00000, 230.786, -30.0887, 230.874, -150.033, 230.899, 89.9596, 37.2167, 138.463, 11.6706, 18.3008, 15.0798, -101.335
11, 0.00000, 230.812, -30.0764, 230.862, -150.042, 230.889, 89.9584, 31.6307, 138.484, 15.8516, 18.3559, 15.714, -101.416
11, 900.00000, 230.335, -30.3465, 230.8, -150.03, 231.026, 89.9663, 149.684, 138.453, 5.88684, 17.3793, 6.62745, -100.624
11, 1800.00000, 230.321, -30.354, 230.787, -150.04, 231.004, 89.9526, 152.497, 138.426, 9.44283, 17.3557, 12.2731, -100.628
11, 2700.00000, 230.293, -30.3628, 230.797, -150.041, 230.95, 89.9185, 155.79, 138.289, 9.19318, 17.4198, 26.7803, -100.507
12, 0.00000, 230.296, -30.3618, 230.797, -150.04, 230.961, 89.9252, 155.477, 138.303, 8.74155, 17.4633, 23.9002, -100.48
12, 900.00000, 230.404, -30.3758, 230.337, -150.288, 230.87, 89.9145, 154.872, 139.162, 117.338, 17.1964, 24.0394, -101.388
12, 1800.00000, 230.406, -30.3765, 230.325, -150.295, 230.864, 89.9122, 154.924, 139.186, 120.443, 17.1958, 24.9009, -101.452
12, 2700.00000, 230.286, -30.3989, 230.297, -150.402, 230.27, 89.5887, 157.734, 138.02, 158.822, 18.3538, 163.074, -101.851
13, 0.00000, 230.286, -30.399, 230.297, -150.402, 230.27, 89.5892, 157.741, 138.046, 158.622, 18.3323, 162.886, -101.858
13, 900.00000, 230.29, -30.397, 230.299, -150.4, 230.269, 89.5882, 156.824, 138.087, 158.124, 18.2865, 163.366, -101.84
13, 1800.00000, 230.29, -30.3964, 230.3, -150.4, 230.268, 89.588, 156.587, 138.065, 157.955, 18.2935, 163.479, -101.829
13, 2700.00000, 230.29, -30.3969, 230.302, -150.4, 230.267, 89.5877, 156.806, 138.095, 157.67, 18.3048, 163.68, -101.871
14, 0.00000, 230.304, -30.3959, 230.287, -150.399, 230.324, 89.6204, 156.833, 138.211, 158.107, 18.227, 149.492, -101.868
14, 900.00000, 230.29, -30.3962, 230.3, -150.401, 230.269, 89.5879, 156.561, 138.024, 158.161, 18.3177, 163.457, -101.814
14, 1800.00000, 230.286, -30.3986, 230.3, -150.4, 230.27, 89.5887, 157.605, 138.027, 157.993, 18.3459, 163.118, -101.839
14, 2700.00000, 230.284, -30.3992, 230.301, -150.401, 230.27, 89.5889, 157.911, 138.015, 158.106, 18.3901, 163.037, -101.866
15, 0.00000, 230.28, -30.4013, 230.3, -150.401, 230.271, 89.5883, 158.813, 137.986, 158.271, 18.3977, 163.193, -101.846
15, 900.00000, 230.284, -30.4001, 230.297, -150.402, 230.27, 89.5888, 158.222, 138.045, 158.667, 18.3459, 163.05, -101.867
15, 1800.00000, 230.283, -30.4006, 230.299, -150.401, 230.27, 89.5891, 158.479, 138.058, 158.255, 18.3572, 162.918, -101.891
15, 2700.00000, 230.284, -30.4001, 230.295, -150.403, 230.271, 89.589, 158.214, 138.022, 159.09, 18.3463, 162.91, -101.842
16, 0.00000, 230.284, -30.4001, 230.295, -150.403, 230.27, 89.5886, 158.202, 138.019, 159.201, 18.3501, 163.057, -101.843
16, 900.00000, 230.42, -30.3876, 230.177, -150.38, 230.808, 89.893, 157.496, 139.22, 157.065, 17.3426, 31.4926, -101.785
16, 1800.00000, 230.419, -30.3872, 230.18, -150.38, 230.805, 89.8913, 157.329, 139.196, 156.74, 17.3683, 32.2517, -101.781
16, 2700.00000, 230.428, -30.3865, 230.175, -150.379, 230.813, 89.896, 156.864, 139.39, 156.615, 17.1849, 30.2941, -101.705
17, 0.00000, 230.428, -30.3864, 230.168, -150.383, 230.821, 89.9011, 156.969, 139.3, 158.39, 17.2872, 27.9733, -101.808
17, 900.00000, 230.346, -30.367, 230.581, -150.158, 230.915, 89.9184, 154.693, 138.58, 60.5974, 17.5207, 24.6461, -100.787
17, 1800.00000, 230.331, -30.3665, 230.625, -150.137, 230.909, 89.9105, 154.959, 138.429, 51.204, 17.745, 28.3904, -100.679
17, 2700.00000, 230.511, -30.2546, 230.764, -150.068, 230.954, 89.9547, 108.564, 138.58, 23.8317, 17.7641, 12.9967, -100.95
18, 0.00000, 230.534, -30.2481, 230.716, -150.098, 230.924, 89.9442, 104.829, 138.647, 36.7158, 17.7443, 17.1465, -101.086
18, 900.00000, 230.911, -30.0501, 230.66, -150.161, 230.836, 89.9554, 17.4949, 138.81, 68.4313, 18.4357, 15.2913, -101.892
18, 1800.00000, 230.898, -30.0458, 230.744, -150.113, 230.858, 89.9608, 16.7983, 138.667, 47.7467, 18.4343, 13.9508, -101.697
18, 2700.00000, 230.871, -30.049, 230.789, -150.102, 230.763, 89.9046, 17.3651, 138.43, 41.3736, 18.5353, 38.6305, -101.632
19, 0.00000, 230.805, -30.076, 230.824, -150.086, 230.719, 89.87, 28.861, 138.282, 33.3164, 18.5897, 53.4267, -101.564
19, 900.00000, 230.79, -30.1009, 230.749, -150.109, 230.826, 89.9283, 40.2774, 138.519, 44.1838, 18.3618, 27.0337, -101.554
19, 1800.00000, 230.812, -30.082, 230.776, -150.104, 230.771, 89.901, 31.6715, 138.382, 41.7994, 18.4984, 39.4101, -101.566
19, 2700.00000, 230.7, -30.1393, 230.793, -150.088, 230.78, 89.8883, 56.7597, 138.33, 33.3962, 18.3658, 44.0149, -101.39
20, 0.00000, 230.787, -30.0859, 230.841, -150.069, 230.768, 89.8921, 33.9645, 138.323, 26.1332, 18.5318, 43.9038, -101.504
20, 900.00000, 230.753, -30.1107, 230.814, -150.074, 230.823, 89.9177, 45.1387, 138.443, 28.1975, 18.3748, 32.1041, -101.481
20, 1800.00000, 230.798, -30.0835, 230.839, -150.063, 230.82, 89.9215, 33.5791, 138.428, 24.2321, 18.4347, 31.2228, -101.484
20, 2700.00000, 230.778, -30.0892, 230.84, -150.073, 230.743, 89.8777, 35.0611, 138.297, 27.4629, 18.5606, 50.0143, -101.515
21, 0.00000, 230.768, -30.115, 230.721, -150.127, 230.796, 89.911, 45.6859, 138.571, 51.3062, 18.3321, 33.9522, -101.611
21, 900.00000, 230.687, -30.1485, 230.803, -150.072, 230.85, 89.9232, 61.7703, 138.432, 26.7799, 18.2125, 28.891, -101.342
21, 1800.00000, 230.785, -30.0918, 230.817, -150.078, 230.798, 89.9091, 36.6545, 138.399, 30.098, 18.4857, 36.1905, -101.533
21, 2700.00000, 230.77, -30.0996, 230.821, -150.074, 230.802, 89.9088, 40.1444, 138.378, 28.4817, 18.4696, 36.2252, -101.486
22, 0.00000, 230.779, -30.1041, 230.777, -150.09, 230.854, 89.9398, 42.323, 138.545, 35.9848, 18.3549, 22.3302, -101.559
22, 900.00000, 230.835, -30.0677, 230.833, -150.06, 230.879, 89.9584, 27.4304, 138.526, 23.9352, 18.4124, 15.5571, -101.525
22, 1800.00000, 230.893, -30.0365, 230.835, -150.063, 230.874, 89.964, 13.8972, 138.567, 25.8314, 18.498, 13.712, -101.62
22, 2700.00000, 230.87, -30.0534, 230.803, -150.078, 230.876, 89.963, 20.8958, 138.6, 32.1476, 18.4577, 13.5048, -101.646
23, 0.00000, 230.766, -30.114, 230.766, -150.091, 230.88, 89.9522, 46.8189, 138.623, 36.473, 18.2178, 16.6576, -101.495
23, 900.00000, 230.723, -30.1442, 230.726, -150.107, 230.899, 89.9579, 59.6882, 138.671, 42.9615, 18.1057, 13.2544, -101.477
23, 1800.00000, 230.879, -30.0533, 230.772, -150.094, 230.879, 89.9678, 20.5945, 138.7, 39.3082, 18.4165, 11.1084, -101.682
23, 2700.00000, 230.803, -30.0891, 230.807, -150.07, 230.89, 89.9605, 36.6059, 138.581, 28.0119, 18.3029, 13.9647, -101.493
24, 0.00000, 230.874, -30.0459, 230.834, -150.065, 230.854, 89.9506, 17.6613, 138.515, 26.514, 18.4951, 19.3429, -101.574
